
**** 05/19/23 12:32:02 **** PSpice 22.1.0 (6 October 2022) **** ID# 0 ********

 ** Profile: "SCHEMATIC1-sim1"  [ d:\cad\deadline 3\proiect cad-pspicefiles\schematic1\sim1.sim ] 


 ****     CIRCUIT DESCRIPTION


******************************************************************************




** Creating circuit file "sim1.cir" 
** WARNING: THIS AUTOMATICALLY GENERATED FILE MAY BE OVERWRITTEN BY SUBSEQUENT SIMULATIONS

*Libraries: 
* Profile Libraries :
* Local Libraries :
* From [PSPICE NETLIST] section of C:\Users\carin\AppData\Roaming\SPB_Data\cdssetup\OrCAD_PSpice\22.1.0\PSpice.ini file:
.lib "nom.lib" 

*Analysis directives: 
.TRAN  0 1ms 0 0.1m 
.WCASE TRAN V([OUT]) YMAX VARY BOTH  HI 
.OPTIONS ADVCONV
.PROBE64 V(alias(*)) I(alias(*)) W(alias(*)) D(alias(*)) NOISE(alias(*)) 
.INC "..\SCHEMATIC1.net" 



**** INCLUDING SCHEMATIC1.net ****
* source PROIECT CAD
V_V2         0 -VPS 15V
V_V3         +VPS 0 15V
R_R4         N27593 N15178 R_R4 1.5K TC=0,0 
.model        R_R4 RES R=1 DEV=5% TC1=0 TC2=0
R_R6         N15025 MID R_R6 10K TC=0,0 
.model        R_R6 RES R=1 DEV=2% TC1=0 TC2=0
C_C2         0 N15178 C_C2 4.7nF  TC=0,0 
.model        C_C2 CAP C=1 DEV=2% TC1=0 TC2=0 VC1=0 VC2=0
D_D1         N16407 N16306 D1N4148 
D_D2         N16306 N16344 D1N4148 
R_R9         N16407 +VPS R_R9 1k TC=0,0 
.model        R_R9 RES R=1 DEV=2% TC1=0 TC2=0
R_R10         -VPS N16344 R_R10 1k TC=0,0 
.model        R_R10 RES R=1 DEV=2% TC1=0 TC2=0
Q_Q1         +VPS N16407 OUT Q2N3055
Q_Q2         -VPS N16344 OUT TIP30C
R_Rout         OUT 0 R_Rout 30 TC=0,0 
.model        R_Rout RES R=1 DEV=1% TC1=0 TC2=0
R_R5         0 N15025 R_R5 1k TC=0,0 
.model        R_R5 RES R=1 DEV=2% TC1=0 TC2=0
R_R2         0 N27455 R_R2 5K TC=0,0 
.model        R_R2 RES R=1 DEV=2% TC1=0 TC2=0
R_R3         N27455 N27593 R_R3 50K TC=0,0 
.model        R_R3 RES R=1 DEV=2% TC1=0 TC2=0
C_C1         IN N28627 C_C1 2nF  TC=0,0 
.model        C_C1 CAP C=1 DEV=2% TC1=0 TC2=0 VC1=0 VC2=0
R_R1         0 N28627 R_R1 10K TC=0,0 
.model        R_R1 RES R=1 DEV=2% TC1=0 TC2=0
R_R7         0 N30286 R_R7 1K  
.model        r_R7 RES R=1 DEV=1%
V_V1         IN 0  AC 300u
+SIN 0 300u 16000 0 0 0
X_U4         N16109 N16306 +VPS -VPS N16306 TL071/301/TI
X_U1         N28627 N27455 +VPS -VPS N27593 LT1028/LT
X_U2         N15178 N15025 +VPS -VPS MID LT1028/LT
X_U3         MID N30286 +VPS -VPS N16109 LT1028/LT
X_POT1         N45122 N45122 N16109 POT PARAMS: SET={set} VALUE=227K
R_R8         N30286 N45122  110K TC=0,0 
.PARAM  set=1

**** RESUMING sim1.cir ****
.END

**** 05/19/23 12:32:02 **** PSpice 22.1.0 (6 October 2022) **** ID# 0 ********

 ** Profile: "SCHEMATIC1-sim1"  [ d:\cad\deadline 3\proiect cad-pspicefiles\schematic1\sim1.sim ] 


 ****     Diode MODEL PARAMETERS


******************************************************************************




               D1N4148         X_U4.DX         X_U1.DM1        X_U1.DM2        
          IS    2.682000E-09  800.000000E-18  100.000000E-21  800.000000E-18 
           N    1.836                                                        
         ISR    1.565000E-09                                                 
         IKF     .04417                                                      
          BV  100                                                            
         IBV  100.000000E-06                                                 
          RS     .5664                                                       
          TT   11.540000E-09                                                 
         CJO    4.000000E-12                                                 
          VJ     .5                                                          
           M     .3333                                                       


               X_U1.DM3        X_U2.DM1        X_U2.DM2        X_U2.DM3        
          IS   10.000000E-21  100.000000E-21  800.000000E-18   10.000000E-21 


               X_U3.DM1        X_U3.DM2        X_U3.DM3        
          IS  100.000000E-21  800.000000E-18   10.000000E-21 


**** 05/19/23 12:32:02 **** PSpice 22.1.0 (6 October 2022) **** ID# 0 ********

 ** Profile: "SCHEMATIC1-sim1"  [ d:\cad\deadline 3\proiect cad-pspicefiles\schematic1\sim1.sim ] 


 ****     BJT MODEL PARAMETERS


******************************************************************************




               Q2N3055         TIP30C          X_U1.QM1        X_U1.QM2        
               NPN             PNP             NPN             NPN             
       LEVEL    1               1               1               1            
          IS  974.400000E-15   51.230000E-15  800.000000E-18  800.620000E-18 
          BF   99.49          434.1             5.769200E+03   10.714000E+03 
          NF    1               1               1               1            
         VAF   50             100                                            
         IKF    4.029            .3883                                       
         ISE  902.500000E-12   51.230000E-15                                 
          NE    1.941           1.22                                         
          BR    2.949          55.47            1               1            
          NR    1               1               1               1            
         IKR                   10.87                                         
         ISC                   51.230000E-15                                 
          NC                    1.205                                        
          NK                     .5544                                       
         ISS    0               0               0               0            
          RB     .1              .1                                          
          RE    0               0               0               0            
          RC     .1              .3443          0               0            
         CJE  569.100000E-12  179.900000E-12    0               0            
         VJE     .75             .75             .75             .75         
         MJE     .3333           .4294                                       
         CJC  276.000000E-12  136.900000E-12    0               0            
         VJC     .75             .75             .75             .75         
         MJC     .3333           .3155           .33             .33         
        XCJC    1               1               1               1            
         CJS    0               0               0               0            
         VJS     .75             .75             .75             .75         
          TF   39.110000E-09   13.050000E-09                                 
         XTF    2               1.573                                        
         VTF   10              10                                            
         ITF   20               6.85                                         
          TR  971.700000E-09   20.250000E-09                                 
         XTB    1.5             2.2                                          
          KF    0               0               0               0            
          AF    1               1               1               1            
          CN    2.42            2.2             2.42            2.42         
           D     .87             .52             .87             .87         


               X_U2.QM1        X_U2.QM2        X_U3.QM1        X_U3.QM2        
               NPN             NPN             NPN             NPN             
       LEVEL    1               1               1               1            
          IS  800.000000E-18  800.620000E-18  800.000000E-18  800.620000E-18 
          BF    5.769200E+03   10.714000E+03    5.769200E+03   10.714000E+03 
          NF    1               1               1               1            
          BR    1               1               1               1            
          NR    1               1               1               1            
         ISS    0               0               0               0            
          RE    0               0               0               0            
          RC    0               0               0               0            
         CJE    0               0               0               0            
         VJE     .75             .75             .75             .75         
         CJC    0               0               0               0            
         VJC     .75             .75             .75             .75         
         MJC     .33             .33             .33             .33         
        XCJC    1               1               1               1            
         CJS    0               0               0               0            
         VJS     .75             .75             .75             .75         
          KF    0               0               0               0            
          AF    1               1               1               1            
          CN    2.42            2.42            2.42            2.42         
           D     .87             .87             .87             .87         


**** 05/19/23 12:32:02 **** PSpice 22.1.0 (6 October 2022) **** ID# 0 ********

 ** Profile: "SCHEMATIC1-sim1"  [ d:\cad\deadline 3\proiect cad-pspicefiles\schematic1\sim1.sim ] 


 ****     Junction FET MODEL PARAMETERS


******************************************************************************




               X_U4.JX         
               PJF             
         VTO   -1            
        BETA  270.100000E-06 
          IS   15.000000E-12 


**** 05/19/23 12:32:02 **** PSpice 22.1.0 (6 October 2022) **** ID# 0 ********

 ** Profile: "SCHEMATIC1-sim1"  [ d:\cad\deadline 3\proiect cad-pspicefiles\schematic1\sim1.sim ] 


 ****     Resistor MODEL PARAMETERS


******************************************************************************




               R_R4            R_R6            R_R9            R_R10           
           R    1               1               1               1            


               R_Rout          R_R5            R_R2            R_R3            
           R    1               1               1               1            


               R_R1            R_R7            
           R    1               1            


**** 05/19/23 12:32:02 **** PSpice 22.1.0 (6 October 2022) **** ID# 0 ********

 ** Profile: "SCHEMATIC1-sim1"  [ d:\cad\deadline 3\proiect cad-pspicefiles\schematic1\sim1.sim ] 


 ****     Capacitor MODEL PARAMETERS


******************************************************************************




               C_C2            C_C1            
           C    1               1            


**** 05/19/23 12:32:02 **** PSpice 22.1.0 (6 October 2022) **** ID# 0 ********

 ** Profile: "SCHEMATIC1-sim1"  [ d:\cad\deadline 3\proiect cad-pspicefiles\schematic1\sim1.sim ] 


 ****     INITIAL TRANSIENT SOLUTION       TEMPERATURE =   27.000 DEG C

                      SENSITIVITY NOMINAL

******************************************************************************



 NODE   VOLTAGE     NODE   VOLTAGE     NODE   VOLTAGE     NODE   VOLTAGE


(   IN)    0.0000  (  MID) 441.4E-06  (  OUT)     .2153  ( +VPS)   15.0000      

( -VPS)  -15.0000  (N15025) 3.918E-06 (N15178)-15.67E-06 (N16109)     .1692     

(N16306)     .1693 (N16344)    -.5588 (N16407)     .8962 (N27455)-179.8E-06     

(N27593) 14.19E-06 (N28627)-199.4E-06 (N30286) 461.0E-06 (N45122)     .0556     

(X_U1.1) 14.21E-06 (X_U1.8)-760.1E-12 (X_U2.1) 441.5E-06 (X_U2.8)-21.15E-09     

(X_U3.1)     .1692 (X_U3.8)-8.016E-06 (X_U4.6)-32.68E-06 (X_U4.7)     .1999     

(X_U4.8)     .1999 (X_U4.9)    0.0000 (X_U1.10)    -.6819                       

(X_U1.11)    -.6819                   (X_U1.12)    -.6720                       

(X_U1.13)    3.6394                   (X_U1.14)   -3.6394                       

(X_U1.18) 648.9E-09                   (X_U1.20) 1.298E-15                       

(X_U1.60)  -15.0000                   (X_U1.70)   15.0000                       

(X_U1.80)   14.9840                   (X_U1.90)   14.9840                       

(X_U1.91)   14.9840                   (X_U1.98)-760.1E-12                       

(X_U2.10)    -.6818                   (X_U2.11)    -.6818                       

(X_U2.12)    -.6719                   (X_U2.13)    3.6398                       

(X_U2.14)   -3.6390                   (X_U2.18) 1.783E-06                       

(X_U2.20) 3.566E-15                   (X_U2.60)  -15.0000                       

(X_U2.70)   15.0000                   (X_U2.80)   14.9840                       

(X_U2.90)   14.9840                   (X_U2.91)   14.9840                       

(X_U2.98)-21.15E-09                   (X_U3.10)    -.6813                       

(X_U3.11)    -.6813                   (X_U3.12)    -.6714                       

(X_U3.13)    3.8086                   (X_U3.14)   -3.4702                       

(X_U3.18) 13.97E-06                   (X_U3.20) 27.95E-15                       

(X_U3.60)  -15.0000                   (X_U3.70)   15.0000                       

(X_U3.80)   14.9840                   (X_U3.90)   14.9840                       

(X_U3.91)   14.9840                   (X_U3.98)-8.016E-06                       

(X_U4.10)    -.2296                   (X_U4.11)  -14.6550                       

(X_U4.12)  -14.6550                   (X_U4.53)   12.8000                       

(X_U4.54)  -12.8000                   (X_U4.90)     .2043                       

(X_U4.91)   25.0000                   (X_U4.92)  -25.0000                       

(X_U4.99)    0.0000                   (X_U1.104)-189.6E-06                      

(X_U1.105)-189.6E-06                  (X_U1.131)   15.0000                      

(X_U1.141)  -15.0000                  (X_U2.104)-5.873E-06                      

(X_U2.105)-5.873E-06                  (X_U2.131)   15.0000                      

(X_U2.141)  -15.0000                  (X_U3.104) 451.2E-06                      

(X_U3.105) 451.2E-06                  (X_U3.131)   15.0000                      

(X_U3.141)  -15.0000                  




    VOLTAGE SOURCE CURRENTS
    NAME         CURRENT

    V_V2        -3.599E-01
    V_V3        -3.669E-01
    V_V1         0.000E+00
    X_U4.VB     -3.268E-10
    X_U4.VC      1.263E-11
    X_U4.VE      1.297E-11
    X_U4.VLIM    2.043E-04
    X_U4.VLP    -2.480E-11
    X_U4.VLN    -2.521E-11
    X_U1.VC      1.136E-11
    X_U1.VE      1.136E-11
    X_U2.VC      1.136E-11
    X_U2.VE      1.136E-11
    X_U3.VC      1.119E-11
    X_U3.VE      1.153E-11

    TOTAL POWER DISSIPATION   1.09E+01  WATTS

 NODE   VOLTAGE     NODE   VOLTAGE     NODE   VOLTAGE     NODE   VOLTAGE


(   IN)    0.0000  (  MID) 441.0E-06  (  OUT)     .2152  ( +VPS)   15.0000      

( -VPS)  -15.0000  (N15025) 3.874E-06 (N15178)-15.71E-06 (N16109)     .1691     

(N16306)     .1691 (N16344)    -.5590 (N16407)     .8961 (N27455)-179.8E-06     

(N27593) 14.19E-06 (N28627)-199.4E-06 (N30286) 460.5E-06 (N45122)     .0555     

(X_U1.1) 14.22E-06 (X_U1.8)-762.4E-12 (X_U2.1) 441.0E-06 (X_U2.8)-21.10E-09     

(X_U3.1)     .1691 (X_U3.8)-8.009E-06 (X_U4.6)-32.64E-06 (X_U4.7)     .1997     

(X_U4.8)     .1997 (X_U4.9)    0.0000 (X_U1.10)    -.6819                       

(X_U1.11)    -.6819                   (X_U1.12)    -.6720                       

(X_U1.13)    3.6394                   (X_U1.14)   -3.6394                       

(X_U1.18) 664.7E-09                   (X_U1.20) 1.329E-15                       

(X_U1.60)  -15.0000                   (X_U1.70)   15.0000                       

(X_U1.80)   14.9840                   (X_U1.90)   14.9840                       

(X_U1.91)   14.9840                   (X_U1.98)-762.4E-12                       

(X_U2.10)    -.6818                   (X_U2.11)    -.6818                       

(X_U2.12)    -.6719                   (X_U2.13)    3.6398                       

(X_U2.14)   -3.6390                   (X_U2.18) 1.591E-06                       

(X_U2.20) 3.182E-15                   (X_U2.60)  -15.0000                       

(X_U2.70)   15.0000                   (X_U2.80)   14.9840                       

(X_U2.90)   14.9840                   (X_U2.91)   14.9840                       

(X_U2.98)-21.10E-09                   (X_U3.10)    -.6813                       

(X_U3.11)    -.6813                   (X_U3.12)    -.6714                       

(X_U3.13)    3.8085                   (X_U3.14)   -3.4703                       

(X_U3.18) 13.98E-06                   (X_U3.20) 27.96E-15                       

(X_U3.60)  -15.0000                   (X_U3.70)   15.0000                       

(X_U3.80)   14.9840                   (X_U3.90)   14.9840                       

(X_U3.91)   14.9840                   (X_U3.98)-8.009E-06                       

(X_U4.10)    -.2298                   (X_U4.11)  -14.6550                       

(X_U4.12)  -14.6550                   (X_U4.53)   12.8000                       

(X_U4.54)  -12.8000                   (X_U4.90)     .2039                       

(X_U4.91)   25.0000                   (X_U4.92)  -25.0000                       

(X_U4.99)    0.0000                   (X_U1.104)-189.6E-06                      

(X_U1.105)-189.6E-06                  (X_U1.131)   15.0000                      

(X_U1.141)  -15.0000                  (X_U2.104)-5.917E-06                      

(X_U2.105)-5.917E-06                  (X_U2.131)   15.0000                      

(X_U2.141)  -15.0000                  (X_U3.104) 450.7E-06                      

(X_U3.105) 450.7E-06                  (X_U3.131)   15.0000                      

(X_U3.141)  -15.0000                  




    VOLTAGE SOURCE CURRENTS
    NAME         CURRENT

    V_V2        -3.599E-01
    V_V3        -3.669E-01
    V_V1         0.000E+00
    X_U4.VB     -3.264E-10
    X_U4.VC      1.263E-11
    X_U4.VE      1.297E-11
    X_U4.VLIM    2.039E-04
    X_U4.VLP    -2.480E-11
    X_U4.VLN    -2.520E-11
    X_U1.VC      1.136E-11
    X_U1.VE      1.136E-11
    X_U2.VC      1.136E-11
    X_U2.VE      1.136E-11
    X_U3.VC      1.119E-11
    X_U3.VE      1.153E-11

    TOTAL POWER DISSIPATION   1.09E+01  WATTS

 NODE   VOLTAGE     NODE   VOLTAGE     NODE   VOLTAGE     NODE   VOLTAGE


(   IN)    0.0000  (  MID) 441.0E-06  (  OUT)     .2152  ( +VPS)   15.0000      

( -VPS)  -15.0000  (N15025) 3.874E-06 (N15178)-15.71E-06 (N16109)     .1691     

(N16306)     .1691 (N16344)    -.5590 (N16407)     .8961 (N27455)-179.8E-06     

(N27593) 14.19E-06 (N28627)-199.4E-06 (N30286) 460.5E-06 (N45122)     .0555     

(X_U1.1) 14.22E-06 (X_U1.8)-762.4E-12 (X_U2.1) 441.0E-06 (X_U2.8)-21.13E-09     

(X_U3.1)     .1691 (X_U3.8)-8.009E-06 (X_U4.6)-32.64E-06 (X_U4.7)     .1997     

(X_U4.8)     .1997 (X_U4.9)    0.0000 (X_U1.10)    -.6819                       

(X_U1.11)    -.6819                   (X_U1.12)    -.6720                       

(X_U1.13)    3.6394                   (X_U1.14)   -3.6394                       

(X_U1.18) 664.7E-09                   (X_U1.20) 1.329E-15                       

(X_U1.60)  -15.0000                   (X_U1.70)   15.0000                       

(X_U1.80)   14.9840                   (X_U1.90)   14.9840                       

(X_U1.91)   14.9840                   (X_U1.98)-762.4E-12                       

(X_U2.10)    -.6818                   (X_U2.11)    -.6818                       

(X_U2.12)    -.6719                   (X_U2.13)    3.6398                       

(X_U2.14)   -3.6390                   (X_U2.18) 1.853E-06                       

(X_U2.20) 3.705E-15                   (X_U2.60)  -15.0000                       

(X_U2.70)   15.0000                   (X_U2.80)   14.9840                       

(X_U2.90)   14.9840                   (X_U2.91)   14.9840                       

